i2ctransfer -y 1 w18@0x04 0x18 0x00 0x00 0x00 0x00 0x00 0x00 0x00 0x00 0x00 0x00 0x00 0x00 0x00 0x00 0x00 0x00 0x00
sleep 0.5
i2ctransfer -y 1 w18@0x04 0x18 0x01 0x00 0x00 0x80 0x80 0x00 0x00 0x00 0x00 0x00 0x00 0x00 0x00 0x00 0x00 0x00 0x00
sleep 0.5
i2ctransfer -y 1 w18@0x04 0x18 0x02 0x00 0x00 0x00 0x00 0x00 0x00 0x80 0xC0 0xE0 0xF0 0x3C 0x3C 0x7C 0xF0 0xE0 0x80
sleep 0.5
i2ctransfer -y 1 w18@0x04 0x18 0x03 0x00 0x00 0x00 0x00 0x00 0x00 0x00 0x00 0x00 0x00 0x00 0x00 0x00 0x00 0x80 0xC0
sleep 0.5
i2ctransfer -y 1 w18@0x04 0x18 0x04 0xE0 0xE0 0x70 0x30 0x30 0x38 0x18 0x18 0x18 0x18 0x18 0x18 0x00 0x00 0x00 0x00
sleep 0.5
i2ctransfer -y 1 w18@0x04 0x18 0x05 0x00 0x00 0x80 0x80 0x00 0x00 0x00 0x00 0x00 0x00 0x00 0x00 0x00 0x00 0x00 0x00
sleep 0.5
i2ctransfer -y 1 w18@0x04 0x18 0x06 0x00 0x00 0x00 0x00 0x00 0x00 0x00 0x00 0x00 0x00 0x00 0x00 0x00 0x00 0x00 0x00
sleep 0.5
i2ctransfer -y 1 w18@0x04 0x18 0x07 0x00 0xC0 0xF0 0x70 0x30 0x30 0x38 0x18 0x18 0x38 0x30 0x30 0x30 0x00 0x00 0x00
sleep 0.5
i2ctransfer -y 1 w18@0x04 0x18 0x08 0x00 0x00 0x00 0x00 0x00 0x00 0x00 0x00 0x00 0x00 0x00 0x00 0x80 0xC0 0xE0 0xF0
sleep 0.5
i2ctransfer -y 1 w18@0x04 0x18 0x09 0xBC 0x9E 0x8F 0x8F 0x9F 0xF8 0xF0 0x80 0x00 0x00 0x00 0x00 0x80 0x80 0xC0 0xE0
sleep 0.5
i2ctransfer -y 1 w18@0x04 0x18 0x0a 0x70 0x30 0x78 0x7C 0x6E 0x67 0x63 0x63 0xE1 0xC0 0xC0 0xC0 0x80 0x80 0xC3 0xC7
sleep 0.5
i2ctransfer -y 1 w18@0x04 0x18 0x0b 0xDF 0x7C 0xF0 0xE0 0x00 0x00 0x00 0x00 0x00 0x00 0x00 0x00 0x00 0x0E 0x3F 0x7B
sleep 0.5
i2ctransfer -y 1 w18@0x04 0x18 0x0c 0xE0 0xC0 0xC0 0x80 0x80 0x80 0x80 0x00 0x00 0x00 0x00 0x00 0x00 0x00 0x00 0x00
sleep 0.5
i2ctransfer -y 1 w18@0x04 0x18 0x0d 0x00 0x00 0xFF 0xFF 0x00 0x00 0x00 0x00 0x00 0x00 0x00 0x00 0x00 0xF0 0xF0 0x00
sleep 0.5
i2ctransfer -y 1 w18@0x04 0x18 0x0e 0x00 0x00 0xC0 0xC0 0x00 0x00 0x00 0x00 0x00 0x00 0x00 0x00 0x00 0x00 0x80 0x80
sleep 0.5
i2ctransfer -y 1 w18@0x04 0x18 0x0f 0xFF 0xFF 0x01 0x00 0x00 0x00 0x00 0x00 0x00 0x00 0x00 0x00 0x00 0x00 0x00 0x00
sleep 0.5
i2ctransfer -y 1 w18@0x04 0x18 0x10 0x00 0x00 0x00 0x00 0x00 0x00 0xC0 0xE0 0x70 0x38 0x1C 0x0E 0x07 0x03 0x01 0x01
sleep 0.5
i2ctransfer -y 1 w18@0x04 0x18 0x11 0x01 0x01 0x01 0x01 0x01 0x03 0x03 0x0F 0x7E 0xFC 0xFE 0x87 0x03 0x01 0x01 0x00
sleep 0.5
i2ctransfer -y 1 w18@0x04 0x18 0x12 0x00 0x00 0x00 0x00 0x00 0x00 0x00 0x00 0x00 0x00 0x00 0x01 0x01 0x01 0x01 0x01
sleep 0.5
i2ctransfer -y 1 w18@0x04 0x18 0x13 0x00 0x00 0x03 0x07 0x1F 0x7C 0xF0 0xC0 0x00 0x00 0x00 0x00 0x00 0x00 0x00 0xFC
sleep 0.5
i2ctransfer -y 1 w18@0x04 0x18 0x14 0xFF 0x07 0x03 0x01 0x01 0x01 0x01 0x00 0x00 0x00 0x00 0x00 0x00 0x00 0x00 0x00
sleep 0.5
i2ctransfer -y 1 w18@0x04 0x18 0x15 0x00 0x00 0xFF 0xFF 0x00 0x00 0x00 0x00 0x00 0x00 0x00 0x00 0x00 0x1F 0x1F 0x00
sleep 0.5
i2ctransfer -y 1 w18@0x04 0x18 0x16 0x00 0xFE 0xFF 0x03 0x00 0x00 0x80 0x80 0xC0 0xE0 0x70 0x38 0x1C 0x0F 0x07 0x01
sleep 0.5
i2ctransfer -y 1 w18@0x04 0x18 0x17 0x01 0x07 0x1F 0x3C 0x70 0xE0 0xC0 0x80 0x00 0x00 0x00 0x00 0x00 0x00 0x00 0x00
sleep 0.5
i2ctransfer -y 1 w18@0x04 0x18 0x18 0x00 0x00 0x00 0x00 0x0C 0x0F 0x0F 0x01 0x00 0x00 0x00 0x00 0x00 0x00 0x00 0x00
sleep 0.5
i2ctransfer -y 1 w18@0x04 0x18 0x19 0x00 0x00 0x00 0x00 0x00 0x00 0x00 0x00 0x00 0x00 0x03 0x0F 0x0F 0x0C 0x00 0x00
sleep 0.5
i2ctransfer -y 1 w18@0x04 0x18 0x1a 0x00 0x00 0x00 0x00 0x00 0x00 0x00 0x00 0x00 0x00 0x00 0x00 0x00 0x00 0x00 0x00
sleep 0.5
i2ctransfer -y 1 w18@0x04 0x18 0x1b 0x00 0x00 0x00 0x00 0x00 0x00 0x03 0x07 0x07 0x00 0x00 0x00 0x00 0x00 0x00 0x07
sleep 0.5
i2ctransfer -y 1 w18@0x04 0x18 0x1c 0x07 0x0E 0x1C 0x18 0x18 0x38 0x30 0x30 0x38 0x18 0x18 0x18 0x18 0x1C 0x0E 0x06
sleep 0.5
i2ctransfer -y 1 w18@0x04 0x18 0x1d 0x06 0x00 0x03 0x03 0x03 0x03 0x03 0x03 0x03 0x03 0x00 0x00 0x00 0x00 0x00 0x00
sleep 0.5
i2ctransfer -y 1 w18@0x04 0x18 0x1e 0x00 0x01 0x03 0x03 0x03 0x03 0x03 0x01 0x01 0x00 0x00 0x00 0x00 0x00 0x00 0x00
sleep 0.5
i2ctransfer -y 1 w18@0x04 0x18 0x1f 0x1C 0x3C 0x30 0x30 0x70 0x60 0x61 0x67 0x6F 0x7C 0x78 0xF0 0xF0 0xF0 0x00 0x00
sleep 0.5